
T4EAC 000:141 SEGGER J-Link V6.00e Log File (0001ms, 0024ms total)
T4EAC 000:141 DLL Compiled: Aug  4 2016 09:37:38 (0001ms, 0024ms total)
T4EAC 000:141 Logging started @ 2019-11-17 14:05 (0001ms, 0024ms total)
T4EAC 000:142 JLINK_SetWarnOutHandler(...) (0000ms, 0024ms total)
T4EAC 000:142 JLINK_OpenEx(...)
Firmware: J-Link OB-STM32F072-CortexM compiled May  4 2017 14:44:00
Hardware: V1.00
Feature(s): GDB, RDI, FlashBP, FlashDL, JFlash, RDDI  returns O.K. (0018ms, 0042ms total)
T4EAC 000:160 JLINK_SetErrorOutHandler(...) (0000ms, 0042ms total)
T4EAC 000:160 JLINK_ExecCommand("ProjectFile = "E:\Git¿â_È«²¿³ÌÐò\infantry\RM_Template_Chassis\MDK-ARM\JLinkSettings.ini"", ...).   returns 0x00 (0158ms, 0200ms total)
T4EAC 000:318 JLINK_ExecCommand("Device = STM32F407ZGTx", ...). Device "STM32F407ZG" selected.  returns 0x00 (0004ms, 0204ms total)
T4EAC 000:322 JLINK_ExecCommand("DisableConnectionTimeout", ...).   returns 0x01 (0000ms, 0204ms total)
T4EAC 000:322 JLINK_GetHardwareVersion()  returns 0x2710 (0001ms, 0205ms total)
T4EAC 000:323 JLINK_GetDLLVersion()  returns 60005 (0000ms, 0205ms total)
T4EAC 000:323 JLINK_GetFirmwareString(...) (0000ms, 0205ms total)
T4EAC 000:323 JLINK_GetDLLVersion()  returns 60005 (0000ms, 0205ms total)
T4EAC 000:323 JLINK_GetCompileDateTime() (0000ms, 0205ms total)
T4EAC 000:323 JLINK_GetFirmwareString(...) (0000ms, 0205ms total)
T4EAC 000:323 JLINK_GetHardwareVersion()  returns 0x2710 (0000ms, 0205ms total)
T4EAC 000:323 JLINK_TIF_Select(JLINKARM_TIF_SWD)  returns 0x00 (0002ms, 0207ms total)
T4EAC 000:325 JLINK_SetSpeed(5000) (0001ms, 0208ms total)
T4EAC 000:326 JLINK_GetId() >0x108 TIF>Found SWD-DP with ID 0x2BA01477 >0x0D TIF> >0x28 TIF> >0x0D TIF> >0x28 TIF> >0x0D TIF> >0x28 TIF> >0x0D TIF> >0x28 TIF> >0x0D TIF> >0x21 TIF> >0x0D TIF> >0x28 TIF> >0x0D TIF> >0x28 TIF> >0x0D TIF> >0x28 TIF> >0x0D TIF> >0x21 TIF> >0x0D TIF> >0x21 TIF> >0x0D TIF> >0x28 TIF> >0x0D TIF> >0x21 TIF> >0x0D TIF> >0x21 TIF> >0x0D TIF> >0x28 TIF> >0x0D TIF> >0x21 TIF> >0x0D TIF> >0x21 TIF> >0x0D TIF> >0x28 TIF> >0x0D TIF> >0x21 TIF> >0x0D TIF> >0x21 TIF> >0x0D TIF>
 >0x28 TIF> >0x0D TIF> >0x21 TIF> >0x0D TIF> >0x21 TIF> >0x0D TIF> >0x28 TIF> >0x0D TIF> >0x21 TIF> >0x0D TIF> >0x21 TIF> >0x108 TIF>Found SWD-DP with ID 0x2BA01477 >0x0D TIF> >0x28 TIF> >0x0D TIF> >0x28 TIF> >0x0D TIF> >0x28 TIF> >0x0D TIF> >0x28 TIF> >0x0D TIF> >0x21 TIF> >0x0D TIF> >0x28 TIF> >0x0D TIF> >0x28 TIF> >0x0D TIF> >0x21 TIF> >0x0D TIF> >0x21 TIF> >0x0D TIF> >0x21 TIF>AP-IDR: 0x24770011, Type: AHB-AP >0x0D TIF> >0x28 TIF> >0x0D TIF> >0x28 TIF> >0x0D TIF> >0x28 TIF> >0x0D TIF> >0x21 TIF>
 >0x0D TIF> >0x21 TIF> >0x0D TIF> >0x28 TIF> >0x0D TIF> >0x21 TIF> >0x0D TIF> >0x21 TIF>Found Cortex-M4 r0p1, Little endian. -- CPU_ReadMem(4 bytes @ 0xE000EDF0) -- CPU_ReadMem(4 bytes @ 0xE0002000)FPUnit: 6 code (BP) slots and 2 literal slots -- CPU_ReadMem(4 bytes @ 0xE000EDFC) -- CPU_ReadMem(4 bytes @ 0xE0001000) -- CPU_WriteMem(4 bytes @ 0xE0001000) -- CPU_ReadMem(4 bytes @ 0xE000ED88) -- CPU_WriteMem(4 bytes @ 0xE000ED88) -- CPU_ReadMem(4 bytes @ 0xE000ED88) -- CPU_WriteMem(4 bytes @ 0xE000ED88)
CoreSight components:ROMTbl 0 @ E00FF000 -- CPU_ReadMem(16 bytes @ 0xE00FF000) -- CPU_ReadMem(16 bytes @ 0xE000EFF0) -- CPU_ReadMem(16 bytes @ 0xE000EFE0)ROMTbl 0 [0]: FFF0F000, CID: B105E00D, PID: 000BB00C SCS -- CPU_ReadMem(16 bytes @ 0xE0001FF0) -- CPU_ReadMem(16 bytes @ 0xE0001FE0)ROMTbl 0 [1]: FFF02000, CID: B105E00D, PID: 003BB002 DWT -- CPU_ReadMem(16 bytes @ 0xE0002FF0) -- CPU_ReadMem(16 bytes @ 0xE0002FE0)ROMTbl 0 [2]: FFF03000, CID: B105E00D, PID: 002BB003 FPB
 -- CPU_ReadMem(16 bytes @ 0xE0000FF0) -- CPU_ReadMem(16 bytes @ 0xE0000FE0)ROMTbl 0 [3]: FFF01000, CID: B105E00D, PID: 003BB001 ITM -- CPU_ReadMem(16 bytes @ 0xE00FF010) -- CPU_ReadMem(16 bytes @ 0xE0040FF0) -- CPU_ReadMem(16 bytes @ 0xE0040FE0)ROMTbl 0 [4]: FFF41000, CID: B105900D, PID: 000BB9A1 TPIU -- CPU_ReadMem(16 bytes @ 0xE0041FF0) -- CPU_ReadMem(16 bytes @ 0xE0041FE0)ROMTbl 0 [5]: FFF42000, CID: B105900D, PID: 000BB925 ETM >0x0D TIF> >0x21 TIF>  returns 0x2BA01477 (0058ms, 0266ms total)
T4EAC 000:384 JLINK_GetDLLVersion()  returns 60005 (0000ms, 0266ms total)
T4EAC 000:384 JLINK_CORE_GetFound()  returns 0xE0000FF (0000ms, 0266ms total)
T4EAC 000:384 JLINK_GetDebugInfo(0x100) -- Value=0xE00FF000  returns 0x00 (0001ms, 0267ms total)
T4EAC 000:385 JLINK_GetDebugInfo(0x100) -- Value=0xE00FF000  returns 0x00 (0000ms, 0267ms total)
T4EAC 000:385 JLINK_GetDebugInfo(0x101) -- Value=0xE0041000  returns 0x00 (0000ms, 0267ms total)
T4EAC 000:385 JLINK_GetDebugInfo(0x102) -- Value=0x00000000  returns 0x00 (0000ms, 0267ms total)
T4EAC 000:385 JLINK_GetDebugInfo(0x103) -- Value=0xE0040000  returns 0x00 (0000ms, 0267ms total)
T4EAC 000:385 JLINK_GetDebugInfo(0x104) -- Value=0xE0000000  returns 0x00 (0001ms, 0268ms total)
T4EAC 000:386 JLINK_GetDebugInfo(0x105) -- Value=0xE0001000  returns 0x00 (0000ms, 0268ms total)
T4EAC 000:386 JLINK_GetDebugInfo(0x106) -- Value=0xE0002000  returns 0x00 (0000ms, 0268ms total)
T4EAC 000:386 JLINK_GetDebugInfo(0x107) -- Value=0xE000E000  returns 0x00 (0000ms, 0268ms total)
T4EAC 000:386 JLINK_GetDebugInfo(0x10C) -- Value=0xE000EDF0  returns 0x00 (0000ms, 0268ms total)
T4EAC 000:386 JLINK_ReadMemU32(0xE000EF40, 0x0001 Items, ...) -- CPU is running -- CPU_ReadMem(4 bytes @ 0xE000EF40) - Data: 21 00 11 10  returns 0x01 (0001ms, 0269ms total)
T4EAC 000:387 JLINK_ReadMemU32(0xE000EF44, 0x0001 Items, ...) -- CPU is running -- CPU_ReadMem(4 bytes @ 0xE000EF44) - Data: 11 00 00 11  returns 0x01 (0001ms, 0270ms total)
T4EAC 000:388 JLINK_ReadMemU32(0xE000ED00, 0x0001 Items, ...) -- CPU is running -- CPU_ReadMem(4 bytes @ 0xE000ED00) - Data: 41 C2 0F 41  returns 0x01 (0002ms, 0272ms total)
T4EAC 000:390 JLINK_SetResetType(JLINKARM_RESET_TYPE_NORMAL)  returns JLINKARM_RESET_TYPE_NORMAL (0000ms, 0272ms total)
T4EAC 000:390 JLINK_Reset() -- CPU is running -- CPU_WriteMem(4 bytes @ 0xE000EDF0) -- CPU is running -- CPU_WriteMem(4 bytes @ 0xE000EDFC) >0x35 TIF> -- CPU is running -- CPU_WriteMem(4 bytes @ 0xE000ED0C) -- CPU is running -- CPU_ReadMem(4 bytes @ 0xE000EDF0) -- CPU is running -- CPU_ReadMem(4 bytes @ 0xE000EDF0) -- CPU is running -- CPU_ReadMem(4 bytes @ 0xE000EDF0) -- CPU is running -- CPU_ReadMem(4 bytes @ 0xE000EDF0) -- CPU is running -- CPU_ReadMem(4 bytes @ 0xE000EDF0) -- CPU is running
 -- CPU_ReadMem(4 bytes @ 0xE000EDF0) -- CPU is running -- CPU_ReadMem(4 bytes @ 0xE000EDF0) -- CPU is running -- CPU_ReadMem(4 bytes @ 0xE000EDF0) -- CPU is running -- CPU_ReadMem(4 bytes @ 0xE000EDF0) -- CPU is running -- CPU_ReadMem(4 bytes @ 0xE000EDF0) -- CPU is running -- CPU_ReadMem(4 bytes @ 0xE000EDF0) -- CPU is running -- CPU_ReadMem(4 bytes @ 0xE000EDF0) -- CPU is running -- CPU_ReadMem(4 bytes @ 0xE000EDF0) -- CPU is running -- CPU_ReadMem(4 bytes @ 0xE000EDF0) -- CPU is running
 -- CPU_ReadMem(4 bytes @ 0xE000EDF0) -- CPU is running -- CPU_ReadMem(4 bytes @ 0xE000EDF0) -- CPU is running -- CPU_ReadMem(4 bytes @ 0xE000EDF0) -- CPU is running -- CPU_ReadMem(4 bytes @ 0xE000EDF0) -- CPU is running -- CPU_ReadMem(4 bytes @ 0xE000EDF0) -- CPU is running -- CPU_ReadMem(4 bytes @ 0xE000EDF0) -- CPU is running -- CPU_ReadMem(4 bytes @ 0xE000EDF0) -- CPU is running -- CPU_ReadMem(4 bytes @ 0xE000EDF0) -- CPU is running -- CPU_ReadMem(4 bytes @ 0xE000EDF0) -- CPU is running
 -- CPU_ReadMem(4 bytes @ 0xE000EDF0) -- CPU is running -- CPU_ReadMem(4 bytes @ 0xE000EDF0) -- CPU is running -- CPU_ReadMem(4 bytes @ 0xE000EDF0) -- CPU is running -- CPU_ReadMem(4 bytes @ 0xE000EDF0) -- CPU is running -- CPU_ReadMem(4 bytes @ 0xE000EDF0) -- CPU is running -- CPU_WriteMem(4 bytes @ 0xE000EDF0) -- CPU is running -- CPU_WriteMem(4 bytes @ 0xE000EDFC) -- CPU is running -- CPU_ReadMem(4 bytes @ 0xE000EDF0) -- CPU_WriteMem(4 bytes @ 0xE0002000) -- CPU_ReadMem(4 bytes @ 0xE000EDFC)
 -- CPU_ReadMem(4 bytes @ 0xE0001000) (0045ms, 0317ms total)
T4EAC 000:435 JLINK_ReadReg(R15 (PC))  returns 0x0800025C (0001ms, 0318ms total)
T4EAC 000:436 JLINK_ReadReg(XPSR)  returns 0x01000000 (0000ms, 0318ms total)
T4EAC 000:436 JLINK_Halt()  returns 0x00 (0000ms, 0318ms total)
T4EAC 000:436 JLINK_IsHalted()  returns TRUE (0000ms, 0318ms total)
T4EAC 000:436 JLINK_ReadMemU32(0xE000EDF0, 0x0001 Items, ...) -- CPU_ReadMem(4 bytes @ 0xE000EDF0) - Data: 03 00 03 00  returns 0x01 (0001ms, 0319ms total)
T4EAC 000:437 JLINK_WriteU32(0xE000EDF0, 0xA05F0003) -- CPU_WriteMem(4 bytes @ 0xE000EDF0)  returns 0x00 (0002ms, 0321ms total)
T4EAC 000:439 JLINK_WriteU32(0xE000EDFC, 0x01000000) -- CPU_WriteMem(4 bytes @ 0xE000EDFC)  returns 0x00 (0001ms, 0322ms total)
T4EAC 000:440 JLINK_GetHWStatus(...)  returns 0x00 (0000ms, 0322ms total)
T4EAC 000:440 JLINK_GetNumBPUnits(Type = 0xFFFFFF00)  returns 0x06 (0000ms, 0322ms total)
T4EAC 000:440 JLINK_GetNumBPUnits(Type = 0xF0)  returns 0x2000 (0000ms, 0322ms total)
T4EAC 000:440 JLINK_GetNumWPUnits()  returns 0x04 (0000ms, 0322ms total)
T4EAC 000:440 JLINK_GetSpeed()  returns 0x7D0 (0001ms, 0323ms total)
T4EAC 000:441 JLINK_ReadMemU32(0xE000E004, 0x0001 Items, ...) -- CPU_ReadMem(4 bytes @ 0xE000E004) - Data: 02 00 00 00  returns 0x01 (0000ms, 0323ms total)
T4EAC 000:442 JLINK_ReadMemU32(0xE000E004, 0x0001 Items, ...) -- CPU_ReadMem(4 bytes @ 0xE000E004) - Data: 02 00 00 00  returns 0x01 (0000ms, 0324ms total)
T4EAC 000:442 JLINK_WriteMem(0xE0001000, 0x001C Bytes, ...) - Data: 01 00 00 00 00 00 00 00 00 00 00 00 00 00 00 00 ... -- CPU_WriteMem(28 bytes @ 0xE0001000)  returns 0x1C (0003ms, 0327ms total)
T4EAC 000:445 JLINK_ReadMem (0xE0001000, 0x001C Bytes, ...) -- CPU_ReadMem(28 bytes @ 0xE0001000) - Data: 01 00 00 40 00 00 00 00 00 00 00 00 00 00 00 00 ...  returns 0x00 (0002ms, 0329ms total)
T4EAC 000:447 JLINK_ReadReg(R15 (PC))  returns 0x0800025C (0000ms, 0329ms total)
T4EAC 000:447 JLINK_ReadReg(XPSR)  returns 0x01000000 (0000ms, 0329ms total)
T4EAC 000:714 JLINK_SetResetType(JLINKARM_RESET_TYPE_NORMAL)  returns JLINKARM_RESET_TYPE_NORMAL (0000ms, 0329ms total)
T4EAC 000:714 JLINK_Reset() -- CPU_WriteMem(4 bytes @ 0xE000EDF0) -- CPU_WriteMem(4 bytes @ 0xE000EDFC) >0x35 TIF> -- CPU_WriteMem(4 bytes @ 0xE000ED0C) -- CPU_ReadMem(4 bytes @ 0xE000EDF0) -- CPU_ReadMem(4 bytes @ 0xE000EDF0) -- CPU_ReadMem(4 bytes @ 0xE000EDF0) -- CPU_ReadMem(4 bytes @ 0xE000EDF0) -- CPU_ReadMem(4 bytes @ 0xE000EDF0) -- CPU_ReadMem(4 bytes @ 0xE000EDF0) -- CPU_ReadMem(4 bytes @ 0xE000EDF0) -- CPU_ReadMem(4 bytes @ 0xE000EDF0) -- CPU_ReadMem(4 bytes @ 0xE000EDF0)
 -- CPU_ReadMem(4 bytes @ 0xE000EDF0) -- CPU_ReadMem(4 bytes @ 0xE000EDF0) -- CPU_ReadMem(4 bytes @ 0xE000EDF0) -- CPU_ReadMem(4 bytes @ 0xE000EDF0) -- CPU_ReadMem(4 bytes @ 0xE000EDF0) -- CPU_ReadMem(4 bytes @ 0xE000EDF0) -- CPU_ReadMem(4 bytes @ 0xE000EDF0) -- CPU_ReadMem(4 bytes @ 0xE000EDF0) -- CPU_ReadMem(4 bytes @ 0xE000EDF0) -- CPU_ReadMem(4 bytes @ 0xE000EDF0) -- CPU_ReadMem(4 bytes @ 0xE000EDF0) -- CPU_ReadMem(4 bytes @ 0xE000EDF0) -- CPU_ReadMem(4 bytes @ 0xE000EDF0)
 -- CPU_ReadMem(4 bytes @ 0xE000EDF0) -- CPU_ReadMem(4 bytes @ 0xE000EDF0) -- CPU_ReadMem(4 bytes @ 0xE000EDF0) -- CPU_ReadMem(4 bytes @ 0xE000EDF0) -- CPU_ReadMem(4 bytes @ 0xE000EDF0) -- CPU_ReadMem(4 bytes @ 0xE000EDF0) -- CPU_ReadMem(4 bytes @ 0xE000EDF0) -- CPU_WriteMem(4 bytes @ 0xE000EDF0) -- CPU_WriteMem(4 bytes @ 0xE000EDFC) -- CPU is running -- CPU_ReadMem(4 bytes @ 0xE000EDF0) -- CPU_WriteMem(4 bytes @ 0xE0002000) -- CPU_ReadMem(4 bytes @ 0xE000EDFC) -- CPU_ReadMem(4 bytes @ 0xE0001000)
 (0043ms, 0372ms total)
T4EAC 000:757 JLINK_ReadReg(R15 (PC))  returns 0x0800025C (0001ms, 0373ms total)
T4EAC 000:758 JLINK_ReadReg(XPSR)  returns 0x01000000 (0000ms, 0373ms total)
T4EAC 000:825 JLINK_ReadMem (0x0800025C, 0x003C Bytes, ...) -- CPU_ReadMem(128 bytes @ 0x08000240) -- Updating C cache (128 bytes @ 0x08000240) -- Read from C cache (60 bytes @ 0x0800025C) - Data: 06 48 80 47 06 48 00 47 FE E7 FE E7 FE E7 FE E7 ...  returns 0x00 (0003ms, 0376ms total)
T4EAC 005:697 JLINK_ReadMem (0x20000004, 0x0004 Bytes, ...) -- CPU_ReadMem(64 bytes @ 0x20000000) -- Updating C cache (64 bytes @ 0x20000000) -- Read from C cache (4 bytes @ 0x20000004) - Data: 24 00 00 00  returns 0x00 (0001ms, 0377ms total)
T2F2C 006:030 JLINK_SetBPEx(Addr = 0x08002A44, Type = 0xFFFFFFF2)  returns 0x00000001 (0001ms, 0379ms total)
T2F2C 006:031 JLINK_Go() -- CPU_WriteMem(4 bytes @ 0xE0002000) -- CPU_ReadMem(4 bytes @ 0xE0001000) -- CPU_WriteMem(4 bytes @ 0xE0002008) -- CPU_WriteMem(4 bytes @ 0xE000200C) -- CPU_WriteMem(4 bytes @ 0xE0002010) -- CPU_WriteMem(4 bytes @ 0xE0002014) -- CPU_WriteMem(4 bytes @ 0xE0002018) -- CPU_WriteMem(4 bytes @ 0xE000201C) -- CPU_WriteMem(4 bytes @ 0xE0001004) (0006ms, 0385ms total)
T2F2C 006:139 JLINK_IsHalted()  returns TRUE (0005ms, 0391ms total)
T2F2C 006:144 JLINK_Halt()  returns 0x00 (0000ms, 0386ms total)
T2F2C 006:144 JLINK_IsHalted()  returns TRUE (0000ms, 0386ms total)
T2F2C 006:144 JLINK_IsHalted()  returns TRUE (0001ms, 0387ms total)
T2F2C 006:145 JLINK_IsHalted()  returns TRUE (0000ms, 0386ms total)
T2F2C 006:145 JLINK_ReadReg(R15 (PC))  returns 0x08002A44 (0000ms, 0386ms total)
T2F2C 006:145 JLINK_ReadReg(XPSR)  returns 0x61000000 (0000ms, 0386ms total)
T2F2C 006:145 JLINK_ClrBPEx(BPHandle = 0x00000001)  returns 0x00 (0000ms, 0386ms total)
T2F2C 006:145 JLINK_ReadMemU32(0xE000ED30, 0x0001 Items, ...) -- CPU_ReadMem(4 bytes @ 0xE000ED30) - Data: 02 00 00 00  returns 0x01 (0001ms, 0387ms total)
T2F2C 006:146 JLINK_ReadMemU32(0xE0001028, 0x0001 Items, ...) -- CPU_ReadMem(4 bytes @ 0xE0001028) - Data: 00 00 00 00  returns 0x01 (0001ms, 0388ms total)
T2F2C 006:147 JLINK_ReadMemU32(0xE0001038, 0x0001 Items, ...) -- CPU_ReadMem(4 bytes @ 0xE0001038) - Data: 00 02 00 00  returns 0x01 (0001ms, 0389ms total)
T2F2C 006:148 JLINK_ReadMemU32(0xE0001048, 0x0001 Items, ...) -- CPU_ReadMem(4 bytes @ 0xE0001048) - Data: 00 00 00 00  returns 0x01 (0001ms, 0390ms total)
T2F2C 006:149 JLINK_ReadMemU32(0xE0001058, 0x0001 Items, ...) -- CPU_ReadMem(4 bytes @ 0xE0001058) - Data: 00 00 00 00  returns 0x01 (0002ms, 0392ms total)
T2F2C 006:151 JLINK_ReadReg(R0)  returns 0x08002A45 (0000ms, 0392ms total)
T2F2C 006:151 JLINK_ReadReg(R1)  returns 0x200047F0 (0000ms, 0392ms total)
T2F2C 006:152 JLINK_ReadReg(R2)  returns 0x00000000 (0000ms, 0393ms total)
T2F2C 006:152 JLINK_ReadReg(R3)  returns 0x08002A37 (0000ms, 0393ms total)
T2F2C 006:152 JLINK_ReadReg(R4)  returns 0x080035F0 (0000ms, 0393ms total)
T2F2C 006:152 JLINK_ReadReg(R5)  returns 0x080035F0 (0000ms, 0393ms total)
T2F2C 006:152 JLINK_ReadReg(R6)  returns 0x00000000 (0000ms, 0393ms total)
T2F2C 006:152 JLINK_ReadReg(R7)  returns 0x00000000 (0001ms, 0394ms total)
T2F2C 006:153 JLINK_ReadReg(R8)  returns 0x00000000 (0000ms, 0394ms total)
T2F2C 006:153 JLINK_ReadReg(R9)  returns 0x00000000 (0000ms, 0394ms total)
T2F2C 006:153 JLINK_ReadReg(R10)  returns 0x00000000 (0000ms, 0394ms total)
T2F2C 006:153 JLINK_ReadReg(R11)  returns 0x00000000 (0000ms, 0394ms total)
T2F2C 006:153 JLINK_ReadReg(R12)  returns 0x00000000 (0001ms, 0395ms total)
T2F2C 006:154 JLINK_ReadReg(R13 (SP))  returns 0x200047F0 (0000ms, 0395ms total)
T2F2C 006:154 JLINK_ReadReg(R14)  returns 0x08000385 (0000ms, 0395ms total)
T2F2C 006:154 JLINK_ReadReg(R15 (PC))  returns 0x08002A44 (0000ms, 0395ms total)
T2F2C 006:154 JLINK_ReadReg(XPSR)  returns 0x61000000 (0000ms, 0395ms total)
T2F2C 006:154 JLINK_ReadReg(MSP)  returns 0x200047F0 (0001ms, 0396ms total)
T2F2C 006:155 JLINK_ReadReg(PSP)  returns 0x00000000 (0000ms, 0396ms total)
T2F2C 006:155 JLINK_ReadReg(CFBP)  returns 0x00000000 (0001ms, 0397ms total)
T2F2C 006:156 JLINK_ReadReg(FPSCR)  returns 0x00000000 (0007ms, 0404ms total)
T2F2C 006:163 JLINK_ReadReg(FPS0)  returns 0x00000000 (0001ms, 0405ms total)
T2F2C 006:164 JLINK_ReadReg(FPS1)  returns 0x00000000 (0000ms, 0405ms total)
T2F2C 006:164 JLINK_ReadReg(FPS2)  returns 0x00000000 (0000ms, 0405ms total)
T2F2C 006:164 JLINK_ReadReg(FPS3)  returns 0x00000000 (0000ms, 0405ms total)
T2F2C 006:164 JLINK_ReadReg(FPS4)  returns 0x00000000 (0000ms, 0405ms total)
T2F2C 006:165 JLINK_ReadReg(FPS5)  returns 0x00000000 (0000ms, 0406ms total)
T2F2C 006:165 JLINK_ReadReg(FPS6)  returns 0x00000000 (0000ms, 0406ms total)
T2F2C 006:165 JLINK_ReadReg(FPS7)  returns 0x00000000 (0000ms, 0406ms total)
T2F2C 006:165 JLINK_ReadReg(FPS8)  returns 0x00000000 (0000ms, 0406ms total)
T2F2C 006:165 JLINK_ReadReg(FPS9)  returns 0x00000000 (0005ms, 0411ms total)
T2F2C 006:170 JLINK_ReadReg(FPS10)  returns 0x00000000 (0002ms, 0413ms total)
T2F2C 006:173 JLINK_ReadReg(FPS11)  returns 0x00000000 (0000ms, 0413ms total)
T2F2C 006:173 JLINK_ReadReg(FPS12)  returns 0x00000000 (0000ms, 0413ms total)
T2F2C 006:173 JLINK_ReadReg(FPS13)  returns 0x00000000 (0000ms, 0413ms total)
T2F2C 006:173 JLINK_ReadReg(FPS14)  returns 0x00000000 (0000ms, 0413ms total)
T2F2C 006:173 JLINK_ReadReg(FPS15)  returns 0x00000000 (0001ms, 0414ms total)
T2F2C 006:174 JLINK_ReadReg(FPS16)  returns 0x00000000 (0000ms, 0414ms total)
T2F2C 006:174 JLINK_ReadReg(FPS17)  returns 0x00000000 (0000ms, 0414ms total)
T2F2C 006:174 JLINK_ReadReg(FPS18)  returns 0x00000000 (0000ms, 0414ms total)
T2F2C 006:174 JLINK_ReadReg(FPS19)  returns 0x00000000 (0001ms, 0415ms total)
T2F2C 006:175 JLINK_ReadReg(FPS20)  returns 0x00000000 (0000ms, 0415ms total)
T2F2C 006:175 JLINK_ReadReg(FPS21)  returns 0x00000000 (0000ms, 0415ms total)
T2F2C 006:175 JLINK_ReadReg(FPS22)  returns 0x00000000 (0000ms, 0415ms total)
T2F2C 006:175 JLINK_ReadReg(FPS23)  returns 0x00000000 (0001ms, 0416ms total)
T2F2C 006:176 JLINK_ReadReg(FPS24)  returns 0x00000000 (0000ms, 0416ms total)
T2F2C 006:176 JLINK_ReadReg(FPS25)  returns 0x00000000 (0000ms, 0416ms total)
T2F2C 006:176 JLINK_ReadReg(FPS26)  returns 0x00000000 (0000ms, 0416ms total)
T2F2C 006:176 JLINK_ReadReg(FPS27)  returns 0x00000000 (0000ms, 0416ms total)
T2F2C 006:176 JLINK_ReadReg(FPS28)  returns 0x00000000 (0001ms, 0417ms total)
T2F2C 006:177 JLINK_ReadReg(FPS29)  returns 0x00000000 (0000ms, 0417ms total)
T2F2C 006:177 JLINK_ReadReg(FPS30)  returns 0x00000000 (0000ms, 0417ms total)
T2F2C 006:177 JLINK_ReadReg(FPS31)  returns 0x00000000 (0001ms, 0418ms total)
T4EAC 006:182 JLINK_ReadMemU32(0xE0001004, 0x0001 Items, ...) -- CPU_ReadMem(4 bytes @ 0xE0001004) - Data: A4 6C 00 00  returns 0x01 (0002ms, 0420ms total)
T4EAC 006:185 JLINK_ReadMem (0x20000004, 0x0004 Bytes, ...) -- CPU_ReadMem(64 bytes @ 0x20000000) -- Updating C cache (64 bytes @ 0x20000000) -- Read from C cache (4 bytes @ 0x20000004) - Data: 00 00 00 00  returns 0x00 (0002ms, 0422ms total)
T4EAC 006:214 JLINK_ReadMem (0x08002944, 0x003C Bytes, ...) -- CPU_ReadMem(64 bytes @ 0x08002940) -- Updating C cache (64 bytes @ 0x08002940) -- Read from C cache (60 bytes @ 0x08002944) - Data: 01 EB 00 10 61 68 89 00 B0 FB F1 F7 FE F7 F4 FC ...  returns 0x00 (0001ms, 0423ms total)
T4EAC 006:215 JLINK_ReadMem (0x08002980, 0x003C Bytes, ...) -- CPU_ReadMem(64 bytes @ 0x08002980) -- Updating C cache (64 bytes @ 0x08002980) -- Read from C cache (60 bytes @ 0x08002980) - Data: 00 14 01 40 00 10 01 40 90 F8 39 10 21 29 01 D0 ...  returns 0x00 (0002ms, 0425ms total)
T4EAC 006:217 JLINK_ReadMem (0x080029BC, 0x003C Bytes, ...) -- CPU_ReadMem(64 bytes @ 0x080029C0) -- Updating C cache (64 bytes @ 0x080029C0) -- Read from C cache (60 bytes @ 0x080029BC) - Data: 08 01 51 60 01 69 00 29 01 6A 02 D0 49 1C 01 62 ...  returns 0x00 (0002ms, 0427ms total)
T4EAC 006:219 JLINK_ReadMem (0x080029F8, 0x003C Bytes, ...) -- CPU_ReadMem(64 bytes @ 0x08002A00) -- Updating C cache (64 bytes @ 0x08002A00) -- Read from C cache (60 bytes @ 0x080029F8) - Data: 01 48 FF F7 67 B8 00 00 F8 04 00 20 FE E7 09 07 ...  returns 0x00 (0001ms, 0428ms total)
T4EAC 006:220 JLINK_ReadMem (0x08002A34, 0x003C Bytes, ...) -- CPU_ReadMem(64 bytes @ 0x08002A40) -- Updating C cache (64 bytes @ 0x08002A40) -- Read from C cache (60 bytes @ 0x08002A34) - Data: 70 47 00 20 01 E0 01 C1 12 1F 00 2A FB D1 70 47 ...  returns 0x00 (0002ms, 0430ms total)
T2F2C 020:887 JLINK_SetBPEx(Addr = 0x08001ABA, Type = 0xFFFFFFF2)  returns 0x00000002 (0001ms, 0431ms total)
T2F2C 020:888 JLINK_Go() -- CPU_WriteMem(4 bytes @ 0xE0002000) -- CPU_ReadMem(4 bytes @ 0xE0001000) -- CPU_WriteMem(4 bytes @ 0xE0002008) (0003ms, 0434ms total)
T2F2C 020:992 JLINK_IsHalted()  returns TRUE (0005ms, 0439ms total)
T2F2C 020:997 JLINK_Halt()  returns 0x00 (0000ms, 0434ms total)
T2F2C 020:997 JLINK_IsHalted()  returns TRUE (0000ms, 0434ms total)
T2F2C 020:997 JLINK_IsHalted()  returns TRUE (0000ms, 0434ms total)
T2F2C 020:997 JLINK_IsHalted()  returns TRUE (0000ms, 0434ms total)
T2F2C 020:997 JLINK_ReadReg(R15 (PC))  returns 0x08001ABA (0000ms, 0434ms total)
T2F2C 020:997 JLINK_ReadReg(XPSR)  returns 0x6100002D (0001ms, 0435ms total)
T2F2C 020:998 JLINK_ClrBPEx(BPHandle = 0x00000002)  returns 0x00 (0000ms, 0435ms total)
T2F2C 020:998 JLINK_ReadMemU32(0xE000ED30, 0x0001 Items, ...) -- CPU_ReadMem(4 bytes @ 0xE000ED30) - Data: 02 00 00 00  returns 0x01 (0001ms, 0436ms total)
T2F2C 020:999 JLINK_ReadMemU32(0xE0001028, 0x0001 Items, ...) -- CPU_ReadMem(4 bytes @ 0xE0001028) - Data: 00 00 00 00  returns 0x01 (0001ms, 0437ms total)
T2F2C 021:000 JLINK_ReadMemU32(0xE0001038, 0x0001 Items, ...) -- CPU_ReadMem(4 bytes @ 0xE0001038) - Data: 00 02 00 00  returns 0x01 (0000ms, 0437ms total)
T2F2C 021:000 JLINK_ReadMemU32(0xE0001048, 0x0001 Items, ...) -- CPU_ReadMem(4 bytes @ 0xE0001048) - Data: 00 00 00 00  returns 0x01 (0001ms, 0438ms total)
T2F2C 021:001 JLINK_ReadMemU32(0xE0001058, 0x0001 Items, ...) -- CPU_ReadMem(4 bytes @ 0xE0001058) - Data: 00 00 00 00  returns 0x01 (0001ms, 0439ms total)
T2F2C 021:002 JLINK_ReadReg(R0)  returns 0x40000400 (0000ms, 0439ms total)
T2F2C 021:002 JLINK_ReadReg(R1)  returns 0x40000400 (0000ms, 0439ms total)
T2F2C 021:002 JLINK_ReadReg(R2)  returns 0x00000001 (0000ms, 0439ms total)
T2F2C 021:002 JLINK_ReadReg(R3)  returns 0x40000400 (0000ms, 0439ms total)
T2F2C 021:002 JLINK_ReadReg(R4)  returns 0x200003F8 (0001ms, 0440ms total)
T2F2C 021:003 JLINK_ReadReg(R5)  returns 0x00000000 (0000ms, 0440ms total)
T2F2C 021:003 JLINK_ReadReg(R6)  returns 0x00000000 (0000ms, 0440ms total)
T2F2C 021:003 JLINK_ReadReg(R7)  returns 0x00000000 (0000ms, 0440ms total)
T2F2C 021:003 JLINK_ReadReg(R8)  returns 0x00000000 (0000ms, 0440ms total)
T2F2C 021:003 JLINK_ReadReg(R9)  returns 0x00000000 (0000ms, 0440ms total)
T2F2C 021:004 JLINK_ReadReg(R10)  returns 0x00000000 (0000ms, 0441ms total)
T2F2C 021:004 JLINK_ReadReg(R11)  returns 0x00000000 (0000ms, 0441ms total)
T2F2C 021:004 JLINK_ReadReg(R12)  returns 0x40000000 (0000ms, 0441ms total)
T2F2C 021:004 JLINK_ReadReg(R13 (SP))  returns 0x200047A0 (0000ms, 0441ms total)
T2F2C 021:004 JLINK_ReadReg(R14)  returns 0x08001A45 (0000ms, 0441ms total)
T2F2C 021:004 JLINK_ReadReg(R15 (PC))  returns 0x08001ABA (0000ms, 0441ms total)
T2F2C 021:004 JLINK_ReadReg(XPSR)  returns 0x6100002D (0001ms, 0442ms total)
T2F2C 021:005 JLINK_ReadReg(MSP)  returns 0x200047A0 (0000ms, 0442ms total)
T2F2C 021:005 JLINK_ReadReg(PSP)  returns 0x00000000 (0000ms, 0442ms total)
T2F2C 021:005 JLINK_ReadReg(CFBP)  returns 0x00000000 (0001ms, 0443ms total)
T2F2C 021:006 JLINK_ReadReg(FPSCR)  returns 0x00000000 (0007ms, 0450ms total)
T2F2C 021:013 JLINK_ReadReg(FPS0)  returns 0x00000000 (0000ms, 0450ms total)
T2F2C 021:014 JLINK_ReadReg(FPS1)  returns 0x00000000 (0000ms, 0451ms total)
T2F2C 021:014 JLINK_ReadReg(FPS2)  returns 0x00000000 (0000ms, 0451ms total)
T2F2C 021:014 JLINK_ReadReg(FPS3)  returns 0x00000000 (0000ms, 0451ms total)
T2F2C 021:014 JLINK_ReadReg(FPS4)  returns 0x00000000 (0000ms, 0451ms total)
T2F2C 021:014 JLINK_ReadReg(FPS5)  returns 0x00000000 (0000ms, 0451ms total)
T2F2C 021:014 JLINK_ReadReg(FPS6)  returns 0x00000000 (0000ms, 0451ms total)
T2F2C 021:014 JLINK_ReadReg(FPS7)  returns 0x00000000 (0001ms, 0452ms total)
T2F2C 021:015 JLINK_ReadReg(FPS8)  returns 0x00000000 (0000ms, 0452ms total)
T2F2C 021:015 JLINK_ReadReg(FPS9)  returns 0x00000000 (0000ms, 0452ms total)
T2F2C 021:015 JLINK_ReadReg(FPS10)  returns 0x00000000 (0000ms, 0452ms total)
T2F2C 021:015 JLINK_ReadReg(FPS11)  returns 0x00000000 (0000ms, 0452ms total)
T2F2C 021:015 JLINK_ReadReg(FPS12)  returns 0x00000000 (0001ms, 0453ms total)
T2F2C 021:016 JLINK_ReadReg(FPS13)  returns 0x00000000 (0000ms, 0453ms total)
T2F2C 021:016 JLINK_ReadReg(FPS14)  returns 0x00000000 (0000ms, 0453ms total)
T2F2C 021:016 JLINK_ReadReg(FPS15)  returns 0x00000000 (0000ms, 0453ms total)
T2F2C 021:016 JLINK_ReadReg(FPS16)  returns 0x00000000 (0000ms, 0453ms total)
T2F2C 021:016 JLINK_ReadReg(FPS17)  returns 0x00000000 (0000ms, 0453ms total)
T2F2C 021:016 JLINK_ReadReg(FPS18)  returns 0x00000000 (0001ms, 0454ms total)
T2F2C 021:017 JLINK_ReadReg(FPS19)  returns 0x00000000 (0000ms, 0454ms total)
T2F2C 021:017 JLINK_ReadReg(FPS20)  returns 0x00000000 (0000ms, 0454ms total)
T2F2C 021:017 JLINK_ReadReg(FPS21)  returns 0x00000000 (0000ms, 0454ms total)
T2F2C 021:017 JLINK_ReadReg(FPS22)  returns 0x00000000 (0000ms, 0454ms total)
T2F2C 021:017 JLINK_ReadReg(FPS23)  returns 0x00000000 (0000ms, 0454ms total)
T2F2C 021:017 JLINK_ReadReg(FPS24)  returns 0x00000000 (0001ms, 0455ms total)
T2F2C 021:018 JLINK_ReadReg(FPS25)  returns 0x00000000 (0000ms, 0455ms total)
T2F2C 021:018 JLINK_ReadReg(FPS26)  returns 0x00000000 (0000ms, 0455ms total)
T2F2C 021:018 JLINK_ReadReg(FPS27)  returns 0x00000000 (0000ms, 0455ms total)
T2F2C 021:018 JLINK_ReadReg(FPS28)  returns 0x00000000 (0000ms, 0455ms total)
T2F2C 021:018 JLINK_ReadReg(FPS29)  returns 0x00000000 (0000ms, 0455ms total)
T2F2C 021:019 JLINK_ReadReg(FPS30)  returns 0x00000000 (0000ms, 0455ms total)
T2F2C 021:019 JLINK_ReadReg(FPS31)  returns 0x00000000 (0000ms, 0455ms total)
T4EAC 021:019 JLINK_ReadMemU32(0xE0001004, 0x0001 Items, ...) -- CPU_ReadMem(4 bytes @ 0xE0001004) - Data: 8F C7 00 00  returns 0x01 (0001ms, 0456ms total)
T4EAC 021:020 JLINK_ReadMem (0x20000004, 0x0004 Bytes, ...) -- CPU_ReadMem(64 bytes @ 0x20000000) -- Updating C cache (64 bytes @ 0x20000000) -- Read from C cache (4 bytes @ 0x20000004) - Data: 00 00 00 00  returns 0x00 (0002ms, 0458ms total)
T4EAC 021:030 JLINK_ReadMem (0x08001AB4, 0x003C Bytes, ...) -- CPU_ReadMem(128 bytes @ 0x08001A80) -- Updating C cache (128 bytes @ 0x08001A80) -- Read from C cache (60 bytes @ 0x08001AB4) - Data: 03 49 88 42 01 D1 00 F0 47 BC 70 47 00 00 01 40 ...  returns 0x00 (0003ms, 0461ms total)
T2F2C 022:938 JLINK_Step() -- Read from C cache (2 bytes @ 0x08001ABA) -- CPU_ReadMem(4 bytes @ 0xE000ED18) -- CPU_WriteMem(4 bytes @ 0xE000ED18) -- CPU_ReadMem(4 bytes @ 0xE000ED18) -- CPU_WriteMem(4 bytes @ 0xE000ED18) -- Read from C cache (2 bytes @ 0x08001ABC) -- Simulated  returns 0x00 (0004ms, 0465ms total)
T2F2C 022:942 JLINK_ReadReg(R15 (PC))  returns 0x0800234C (0001ms, 0466ms total)
T2F2C 022:943 JLINK_ReadReg(XPSR)  returns 0x6100002D (0000ms, 0466ms total)
T2F2C 022:943 JLINK_SetBPEx(Addr = 0x08001ABA, Type = 0xFFFFFFF2)  returns 0x00000003 (0000ms, 0466ms total)
T2F2C 022:943 JLINK_Go() -- CPU_WriteMem(4 bytes @ 0xE0002000) -- CPU_ReadMem(4 bytes @ 0xE0001000) -- CPU_WriteMem(4 bytes @ 0xE0001004) (0004ms, 0470ms total)
T2F2C 023:048 JLINK_IsHalted()  returns TRUE (0005ms, 0475ms total)
T2F2C 023:053 JLINK_Halt()  returns 0x00 (0000ms, 0470ms total)
T2F2C 023:053 JLINK_IsHalted()  returns TRUE (0000ms, 0470ms total)
T2F2C 023:053 JLINK_IsHalted()  returns TRUE (0000ms, 0470ms total)
T2F2C 023:053 JLINK_IsHalted()  returns TRUE (0000ms, 0470ms total)
T2F2C 023:053 JLINK_ReadReg(R15 (PC))  returns 0x08001ABA (0000ms, 0470ms total)
T2F2C 023:053 JLINK_ReadReg(XPSR)  returns 0x6100002D (0000ms, 0470ms total)
T2F2C 023:054 JLINK_ClrBPEx(BPHandle = 0x00000003)  returns 0x00 (0000ms, 0471ms total)
T2F2C 023:054 JLINK_ReadMemU32(0xE000ED30, 0x0001 Items, ...) -- CPU_ReadMem(4 bytes @ 0xE000ED30) - Data: 02 00 00 00  returns 0x01 (0000ms, 0471ms total)
T2F2C 023:055 JLINK_ReadMemU32(0xE0001028, 0x0001 Items, ...) -- CPU_ReadMem(4 bytes @ 0xE0001028) - Data: 00 00 00 00  returns 0x01 (0000ms, 0471ms total)
T2F2C 023:055 JLINK_ReadMemU32(0xE0001038, 0x0001 Items, ...) -- CPU_ReadMem(4 bytes @ 0xE0001038) - Data: 00 02 00 00  returns 0x01 (0001ms, 0472ms total)
T2F2C 023:056 JLINK_ReadMemU32(0xE0001048, 0x0001 Items, ...) -- CPU_ReadMem(4 bytes @ 0xE0001048) - Data: 00 00 00 00  returns 0x01 (0001ms, 0473ms total)
T2F2C 023:057 JLINK_ReadMemU32(0xE0001058, 0x0001 Items, ...) -- CPU_ReadMem(4 bytes @ 0xE0001058) - Data: 00 00 00 00  returns 0x01 (0001ms, 0474ms total)
T2F2C 023:058 JLINK_ReadReg(R0)  returns 0x40000400 (0000ms, 0474ms total)
T2F2C 023:058 JLINK_ReadReg(R1)  returns 0x40000400 (0000ms, 0474ms total)
T2F2C 023:058 JLINK_ReadReg(R2)  returns 0x00000000 (0000ms, 0474ms total)
T2F2C 023:059 JLINK_ReadReg(R3)  returns 0x00000000 (0000ms, 0475ms total)
T2F2C 023:059 JLINK_ReadReg(R4)  returns 0x200003F8 (0000ms, 0475ms total)
T2F2C 023:059 JLINK_ReadReg(R5)  returns 0x00000000 (0000ms, 0475ms total)
T2F2C 023:059 JLINK_ReadReg(R6)  returns 0x20000780 (0000ms, 0475ms total)
T2F2C 023:059 JLINK_ReadReg(R7)  returns 0x200006B8 (0000ms, 0475ms total)
T2F2C 023:059 JLINK_ReadReg(R8)  returns 0x10000000 (0000ms, 0475ms total)
T2F2C 023:060 JLINK_ReadReg(R9)  returns 0xE000ED04 (0000ms, 0476ms total)
T2F2C 023:060 JLINK_ReadReg(R10)  returns 0x00000000 (0000ms, 0476ms total)
T2F2C 023:060 JLINK_ReadReg(R11)  returns 0x00000000 (0000ms, 0476ms total)
T2F2C 023:060 JLINK_ReadReg(R12)  returns 0x00000000 (0000ms, 0476ms total)
T2F2C 023:060 JLINK_ReadReg(R13 (SP))  returns 0x200047C0 (0000ms, 0476ms total)
T2F2C 023:060 JLINK_ReadReg(R14)  returns 0x08001A45 (0000ms, 0476ms total)
T2F2C 023:060 JLINK_ReadReg(R15 (PC))  returns 0x08001ABA (0001ms, 0477ms total)
T2F2C 023:061 JLINK_ReadReg(XPSR)  returns 0x6100002D (0000ms, 0477ms total)
T2F2C 023:061 JLINK_ReadReg(MSP)  returns 0x200047C0 (0000ms, 0477ms total)
T2F2C 023:061 JLINK_ReadReg(PSP)  returns 0x200003D0 (0000ms, 0477ms total)
T2F2C 023:061 JLINK_ReadReg(CFBP)  returns 0x00000000 (0000ms, 0477ms total)
T2F2C 023:061 JLINK_ReadReg(FPSCR)  returns 0x00000000 (0008ms, 0485ms total)
T2F2C 023:069 JLINK_ReadReg(FPS0)  returns 0x00000000 (0000ms, 0485ms total)
T2F2C 023:069 JLINK_ReadReg(FPS1)  returns 0x00000000 (0000ms, 0485ms total)
T2F2C 023:069 JLINK_ReadReg(FPS2)  returns 0x00000000 (0000ms, 0485ms total)
T2F2C 023:069 JLINK_ReadReg(FPS3)  returns 0x00000000 (0000ms, 0485ms total)
T2F2C 023:069 JLINK_ReadReg(FPS4)  returns 0x00000000 (0000ms, 0485ms total)
T2F2C 023:069 JLINK_ReadReg(FPS5)  returns 0x00000000 (0001ms, 0486ms total)
T2F2C 023:070 JLINK_ReadReg(FPS6)  returns 0x00000000 (0000ms, 0486ms total)
T2F2C 023:070 JLINK_ReadReg(FPS7)  returns 0x00000000 (0000ms, 0486ms total)
T2F2C 023:070 JLINK_ReadReg(FPS8)  returns 0x00000000 (0001ms, 0487ms total)
T2F2C 023:071 JLINK_ReadReg(FPS9)  returns 0x00000000 (0000ms, 0487ms total)
T2F2C 023:071 JLINK_ReadReg(FPS10)  returns 0x00000000 (0000ms, 0487ms total)
T2F2C 023:071 JLINK_ReadReg(FPS11)  returns 0x00000000 (0000ms, 0487ms total)
T2F2C 023:071 JLINK_ReadReg(FPS12)  returns 0x00000000 (0000ms, 0487ms total)
T2F2C 023:071 JLINK_ReadReg(FPS13)  returns 0x00000000 (0000ms, 0487ms total)
T2F2C 023:071 JLINK_ReadReg(FPS14)  returns 0x00000000 (0000ms, 0487ms total)
T2F2C 023:071 JLINK_ReadReg(FPS15)  returns 0x00000000 (0001ms, 0488ms total)
T2F2C 023:072 JLINK_ReadReg(FPS16)  returns 0x00000000 (0000ms, 0488ms total)
T2F2C 023:072 JLINK_ReadReg(FPS17)  returns 0x00000000 (0000ms, 0488ms total)
T2F2C 023:072 JLINK_ReadReg(FPS18)  returns 0x00000000 (0000ms, 0488ms total)
T2F2C 023:072 JLINK_ReadReg(FPS19)  returns 0x00000000 (0000ms, 0488ms total)
T2F2C 023:072 JLINK_ReadReg(FPS20)  returns 0x00000000 (0000ms, 0488ms total)
T2F2C 023:072 JLINK_ReadReg(FPS21)  returns 0x00000000 (0000ms, 0488ms total)
T2F2C 023:072 JLINK_ReadReg(FPS22)  returns 0x00000000 (0001ms, 0489ms total)
T2F2C 023:073 JLINK_ReadReg(FPS23)  returns 0x00000000 (0000ms, 0489ms total)
T2F2C 023:073 JLINK_ReadReg(FPS24)  returns 0x00000000 (0000ms, 0489ms total)
T2F2C 023:073 JLINK_ReadReg(FPS25)  returns 0x00000000 (0000ms, 0489ms total)
T2F2C 023:073 JLINK_ReadReg(FPS26)  returns 0x00000000 (0000ms, 0489ms total)
T2F2C 023:073 JLINK_ReadReg(FPS27)  returns 0x00000000 (0000ms, 0489ms total)
T2F2C 023:073 JLINK_ReadReg(FPS28)  returns 0x00000000 (0000ms, 0489ms total)
T2F2C 023:073 JLINK_ReadReg(FPS29)  returns 0x00000000 (0000ms, 0489ms total)
T2F2C 023:073 JLINK_ReadReg(FPS30)  returns 0x00000000 (0001ms, 0490ms total)
T2F2C 023:074 JLINK_ReadReg(FPS31)  returns 0x00000000 (0000ms, 0490ms total)
T4EAC 023:074 JLINK_ReadMemU32(0xE0001004, 0x0001 Items, ...) -- CPU_ReadMem(4 bytes @ 0xE0001004) - Data: 15 5A 03 00  returns 0x01 (0001ms, 0491ms total)
T4EAC 023:075 JLINK_ReadMem (0x20000004, 0x0004 Bytes, ...) -- CPU_ReadMem(64 bytes @ 0x20000000) -- Updating C cache (64 bytes @ 0x20000000) -- Read from C cache (4 bytes @ 0x20000004) - Data: 01 00 00 00  returns 0x00 (0002ms, 0493ms total)
T4EAC 023:083 JLINK_ReadMem (0x08001AB4, 0x003C Bytes, ...) -- CPU_ReadMem(128 bytes @ 0x08001A80) -- Updating C cache (128 bytes @ 0x08001A80) -- Read from C cache (60 bytes @ 0x08001AB4) - Data: 03 49 88 42 01 D1 00 F0 47 BC 70 47 00 00 01 40 ...  returns 0x00 (0003ms, 0496ms total)
T2F2C 025:192 JLINK_Step() -- Read from C cache (2 bytes @ 0x08001ABA) -- Read from C cache (2 bytes @ 0x08001ABC) -- Simulated  returns 0x00 (0001ms, 0497ms total)
T2F2C 025:193 JLINK_ReadReg(R15 (PC))  returns 0x0800234C (0000ms, 0497ms total)
T2F2C 025:193 JLINK_ReadReg(XPSR)  returns 0x6100002D (0000ms, 0497ms total)
T2F2C 025:193 JLINK_SetBPEx(Addr = 0x08001ABA, Type = 0xFFFFFFF2)  returns 0x00000004 (0001ms, 0498ms total)
T2F2C 025:194 JLINK_Go() -- CPU_WriteMem(4 bytes @ 0xE0002000) -- CPU_ReadMem(4 bytes @ 0xE0001000) -- CPU_WriteMem(4 bytes @ 0xE0001004) (0003ms, 0501ms total)
T2F2C 025:297 JLINK_IsHalted()  returns TRUE (0005ms, 0506ms total)
T2F2C 025:302 JLINK_Halt()  returns 0x00 (0000ms, 0501ms total)
T2F2C 025:302 JLINK_IsHalted()  returns TRUE (0000ms, 0501ms total)
T2F2C 025:302 JLINK_IsHalted()  returns TRUE (0000ms, 0501ms total)
T2F2C 025:302 JLINK_IsHalted()  returns TRUE (0000ms, 0501ms total)
T2F2C 025:302 JLINK_ReadReg(R15 (PC))  returns 0x08001ABA (0000ms, 0501ms total)
T2F2C 025:302 JLINK_ReadReg(XPSR)  returns 0x6100002D (0000ms, 0501ms total)
T2F2C 025:302 JLINK_ClrBPEx(BPHandle = 0x00000004)  returns 0x00 (0001ms, 0502ms total)
T2F2C 025:303 JLINK_ReadMemU32(0xE000ED30, 0x0001 Items, ...) -- CPU_ReadMem(4 bytes @ 0xE000ED30) - Data: 02 00 00 00  returns 0x01 (0000ms, 0502ms total)
T2F2C 025:304 JLINK_ReadMemU32(0xE0001028, 0x0001 Items, ...) -- CPU_ReadMem(4 bytes @ 0xE0001028) - Data: 00 00 00 00  returns 0x01 (0000ms, 0502ms total)
T2F2C 025:304 JLINK_ReadMemU32(0xE0001038, 0x0001 Items, ...) -- CPU_ReadMem(4 bytes @ 0xE0001038) - Data: 00 02 00 00  returns 0x01 (0001ms, 0503ms total)
T2F2C 025:305 JLINK_ReadMemU32(0xE0001048, 0x0001 Items, ...) -- CPU_ReadMem(4 bytes @ 0xE0001048) - Data: 00 00 00 00  returns 0x01 (0001ms, 0504ms total)
T2F2C 025:306 JLINK_ReadMemU32(0xE0001058, 0x0001 Items, ...) -- CPU_ReadMem(4 bytes @ 0xE0001058) - Data: 00 00 00 00  returns 0x01 (0000ms, 0504ms total)
T2F2C 025:306 JLINK_ReadReg(R0)  returns 0x40000400 (0000ms, 0504ms total)
T2F2C 025:307 JLINK_ReadReg(R1)  returns 0x40000400 (0000ms, 0505ms total)
T2F2C 025:307 JLINK_ReadReg(R2)  returns 0x00000000 (0000ms, 0505ms total)
T2F2C 025:307 JLINK_ReadReg(R3)  returns 0x00000000 (0000ms, 0505ms total)
T2F2C 025:307 JLINK_ReadReg(R4)  returns 0x200003F8 (0000ms, 0505ms total)
T2F2C 025:307 JLINK_ReadReg(R5)  returns 0x00000000 (0000ms, 0505ms total)
T2F2C 025:307 JLINK_ReadReg(R6)  returns 0x20000780 (0000ms, 0505ms total)
T2F2C 025:307 JLINK_ReadReg(R7)  returns 0x200006B8 (0000ms, 0505ms total)
T2F2C 025:307 JLINK_ReadReg(R8)  returns 0x10000000 (0000ms, 0505ms total)
T2F2C 025:307 JLINK_ReadReg(R9)  returns 0xE000ED04 (0001ms, 0506ms total)
T2F2C 025:308 JLINK_ReadReg(R10)  returns 0x00000000 (0000ms, 0506ms total)
T2F2C 025:308 JLINK_ReadReg(R11)  returns 0x00000000 (0000ms, 0506ms total)
T2F2C 025:308 JLINK_ReadReg(R12)  returns 0x00000000 (0000ms, 0506ms total)
T2F2C 025:308 JLINK_ReadReg(R13 (SP))  returns 0x200047C0 (0000ms, 0506ms total)
T2F2C 025:308 JLINK_ReadReg(R14)  returns 0x08001A45 (0000ms, 0506ms total)
T2F2C 025:308 JLINK_ReadReg(R15 (PC))  returns 0x08001ABA (0000ms, 0506ms total)
T2F2C 025:308 JLINK_ReadReg(XPSR)  returns 0x6100002D (0001ms, 0507ms total)
T2F2C 025:309 JLINK_ReadReg(MSP)  returns 0x200047C0 (0000ms, 0507ms total)
T2F2C 025:309 JLINK_ReadReg(PSP)  returns 0x200003D0 (0000ms, 0507ms total)
T2F2C 025:309 JLINK_ReadReg(CFBP)  returns 0x00000000 (0000ms, 0507ms total)
T2F2C 025:309 JLINK_ReadReg(FPSCR)  returns 0x00000000 (0008ms, 0515ms total)
T2F2C 025:317 JLINK_ReadReg(FPS0)  returns 0x00000000 (0000ms, 0515ms total)
T2F2C 025:317 JLINK_ReadReg(FPS1)  returns 0x00000000 (0000ms, 0515ms total)
T2F2C 025:317 JLINK_ReadReg(FPS2)  returns 0x00000000 (0000ms, 0515ms total)
T2F2C 025:317 JLINK_ReadReg(FPS3)  returns 0x00000000 (0000ms, 0515ms total)
T2F2C 025:317 JLINK_ReadReg(FPS4)  returns 0x00000000 (0001ms, 0516ms total)
T2F2C 025:318 JLINK_ReadReg(FPS5)  returns 0x00000000 (0000ms, 0516ms total)
T2F2C 025:318 JLINK_ReadReg(FPS6)  returns 0x00000000 (0000ms, 0516ms total)
T2F2C 025:318 JLINK_ReadReg(FPS7)  returns 0x00000000 (0000ms, 0516ms total)
T2F2C 025:318 JLINK_ReadReg(FPS8)  returns 0x00000000 (0000ms, 0516ms total)
T2F2C 025:318 JLINK_ReadReg(FPS9)  returns 0x00000000 (0000ms, 0516ms total)
T2F2C 025:318 JLINK_ReadReg(FPS10)  returns 0x00000000 (0001ms, 0517ms total)
T2F2C 025:319 JLINK_ReadReg(FPS11)  returns 0x00000000 (0000ms, 0517ms total)
T2F2C 025:319 JLINK_ReadReg(FPS12)  returns 0x00000000 (0000ms, 0517ms total)
T2F2C 025:319 JLINK_ReadReg(FPS13)  returns 0x00000000 (0000ms, 0517ms total)
T2F2C 025:319 JLINK_ReadReg(FPS14)  returns 0x00000000 (0000ms, 0517ms total)
T2F2C 025:319 JLINK_ReadReg(FPS15)  returns 0x00000000 (0000ms, 0517ms total)
T2F2C 025:319 JLINK_ReadReg(FPS16)  returns 0x00000000 (0000ms, 0517ms total)
T2F2C 025:320 JLINK_ReadReg(FPS17)  returns 0x00000000 (0000ms, 0518ms total)
T2F2C 025:320 JLINK_ReadReg(FPS18)  returns 0x00000000 (0000ms, 0518ms total)
T2F2C 025:320 JLINK_ReadReg(FPS19)  returns 0x00000000 (0000ms, 0518ms total)
T2F2C 025:320 JLINK_ReadReg(FPS20)  returns 0x00000000 (0000ms, 0518ms total)
T2F2C 025:320 JLINK_ReadReg(FPS21)  returns 0x00000000 (0000ms, 0518ms total)
T2F2C 025:320 JLINK_ReadReg(FPS22)  returns 0x00000000 (0000ms, 0518ms total)
T2F2C 025:320 JLINK_ReadReg(FPS23)  returns 0x00000000 (0001ms, 0519ms total)
T2F2C 025:321 JLINK_ReadReg(FPS24)  returns 0x00000000 (0000ms, 0519ms total)
T2F2C 025:321 JLINK_ReadReg(FPS25)  returns 0x00000000 (0000ms, 0519ms total)
T2F2C 025:321 JLINK_ReadReg(FPS26)  returns 0x00000000 (0000ms, 0519ms total)
T2F2C 025:321 JLINK_ReadReg(FPS27)  returns 0x00000000 (0000ms, 0519ms total)
T2F2C 025:321 JLINK_ReadReg(FPS28)  returns 0x00000000 (0000ms, 0519ms total)
T2F2C 025:321 JLINK_ReadReg(FPS29)  returns 0x00000000 (0000ms, 0519ms total)
T2F2C 025:321 JLINK_ReadReg(FPS30)  returns 0x00000000 (0001ms, 0520ms total)
T2F2C 025:322 JLINK_ReadReg(FPS31)  returns 0x00000000 (0000ms, 0520ms total)
T4EAC 025:322 JLINK_ReadMemU32(0xE0001004, 0x0001 Items, ...) -- CPU_ReadMem(4 bytes @ 0xE0001004) - Data: 1C 5C 03 00  returns 0x01 (0001ms, 0521ms total)
T4EAC 025:323 JLINK_ReadMem (0x20000004, 0x0004 Bytes, ...) -- CPU_ReadMem(64 bytes @ 0x20000000) -- Updating C cache (64 bytes @ 0x20000000) -- Read from C cache (4 bytes @ 0x20000004) - Data: 01 00 00 00  returns 0x00 (0002ms, 0523ms total)
T4EAC 025:332 JLINK_ReadMem (0x08001AB4, 0x003C Bytes, ...) -- CPU_ReadMem(128 bytes @ 0x08001A80) -- Updating C cache (128 bytes @ 0x08001A80) -- Read from C cache (60 bytes @ 0x08001AB4) - Data: 03 49 88 42 01 D1 00 F0 47 BC 70 47 00 00 01 40 ...  returns 0x00 (0002ms, 0525ms total)
T2F2C 026:400 JLINK_Step() -- Read from C cache (2 bytes @ 0x08001ABA) -- Read from C cache (2 bytes @ 0x08001ABC) -- Simulated  returns 0x00 (0001ms, 0526ms total)
T2F2C 026:401 JLINK_ReadReg(R15 (PC))  returns 0x0800234C (0000ms, 0526ms total)
T2F2C 026:401 JLINK_ReadReg(XPSR)  returns 0x6100002D (0000ms, 0526ms total)
T2F2C 026:401 JLINK_SetBPEx(Addr = 0x08001ABA, Type = 0xFFFFFFF2)  returns 0x00000005 (0001ms, 0527ms total)
T2F2C 026:402 JLINK_Go() -- CPU_WriteMem(4 bytes @ 0xE0002000) -- CPU_ReadMem(4 bytes @ 0xE0001000) -- CPU_WriteMem(4 bytes @ 0xE0001004) (0003ms, 0530ms total)
T2F2C 026:505 JLINK_IsHalted()  returns TRUE (0005ms, 0535ms total)
T2F2C 026:511 JLINK_Halt()  returns 0x00 (0000ms, 0530ms total)
T2F2C 026:511 JLINK_IsHalted()  returns TRUE (0000ms, 0530ms total)
T2F2C 026:511 JLINK_IsHalted()  returns TRUE (0000ms, 0530ms total)
T2F2C 026:511 JLINK_IsHalted()  returns TRUE (0000ms, 0530ms total)
T2F2C 026:511 JLINK_ReadReg(R15 (PC))  returns 0x08001ABA (0000ms, 0530ms total)
T2F2C 026:511 JLINK_ReadReg(XPSR)  returns 0x6100002D (0000ms, 0530ms total)
T2F2C 026:512 JLINK_ClrBPEx(BPHandle = 0x00000005)  returns 0x00 (0000ms, 0530ms total)
T2F2C 026:512 JLINK_ReadMemU32(0xE000ED30, 0x0001 Items, ...) -- CPU_ReadMem(4 bytes @ 0xE000ED30) - Data: 02 00 00 00  returns 0x01 (0000ms, 0530ms total)
T2F2C 026:512 JLINK_ReadMemU32(0xE0001028, 0x0001 Items, ...) -- CPU_ReadMem(4 bytes @ 0xE0001028) - Data: 00 00 00 00  returns 0x01 (0000ms, 0530ms total)
T2F2C 026:512 JLINK_ReadMemU32(0xE0001038, 0x0001 Items, ...) -- CPU_ReadMem(4 bytes @ 0xE0001038) - Data: 00 02 00 00  returns 0x01 (0001ms, 0531ms total)
T2F2C 026:513 JLINK_ReadMemU32(0xE0001048, 0x0001 Items, ...) -- CPU_ReadMem(4 bytes @ 0xE0001048) - Data: 00 00 00 00  returns 0x01 (0000ms, 0531ms total)
T2F2C 026:514 JLINK_ReadMemU32(0xE0001058, 0x0001 Items, ...) -- CPU_ReadMem(4 bytes @ 0xE0001058) - Data: 00 00 00 00  returns 0x01 (0000ms, 0532ms total)
T2F2C 026:514 JLINK_ReadReg(R0)  returns 0x40000400 (0000ms, 0532ms total)
T2F2C 026:514 JLINK_ReadReg(R1)  returns 0x40000400 (0000ms, 0532ms total)
T2F2C 026:515 JLINK_ReadReg(R2)  returns 0x00000000 (0000ms, 0533ms total)
T2F2C 026:515 JLINK_ReadReg(R3)  returns 0x00000000 (0000ms, 0533ms total)
T2F2C 026:515 JLINK_ReadReg(R4)  returns 0x200003F8 (0000ms, 0533ms total)
T2F2C 026:515 JLINK_ReadReg(R5)  returns 0x00000000 (0000ms, 0533ms total)
T2F2C 026:515 JLINK_ReadReg(R6)  returns 0x20000780 (0000ms, 0533ms total)
T2F2C 026:515 JLINK_ReadReg(R7)  returns 0x200006B8 (0000ms, 0533ms total)
T2F2C 026:515 JLINK_ReadReg(R8)  returns 0x10000000 (0000ms, 0533ms total)
T2F2C 026:516 JLINK_ReadReg(R9)  returns 0xE000ED04 (0000ms, 0534ms total)
T2F2C 026:516 JLINK_ReadReg(R10)  returns 0x00000000 (0000ms, 0534ms total)
T2F2C 026:516 JLINK_ReadReg(R11)  returns 0x00000000 (0000ms, 0534ms total)
T2F2C 026:516 JLINK_ReadReg(R12)  returns 0x00000000 (0000ms, 0534ms total)
T2F2C 026:516 JLINK_ReadReg(R13 (SP))  returns 0x200047C0 (0000ms, 0534ms total)
T2F2C 026:516 JLINK_ReadReg(R14)  returns 0x08001A45 (0000ms, 0534ms total)
T2F2C 026:516 JLINK_ReadReg(R15 (PC))  returns 0x08001ABA (0000ms, 0534ms total)
T2F2C 026:516 JLINK_ReadReg(XPSR)  returns 0x6100002D (0001ms, 0535ms total)
T2F2C 026:517 JLINK_ReadReg(MSP)  returns 0x200047C0 (0000ms, 0535ms total)
T2F2C 026:517 JLINK_ReadReg(PSP)  returns 0x200003D0 (0000ms, 0535ms total)
T2F2C 026:517 JLINK_ReadReg(CFBP)  returns 0x00000000 (0000ms, 0535ms total)
T2F2C 026:517 JLINK_ReadReg(FPSCR)  returns 0x00000000 (0007ms, 0542ms total)
T2F2C 026:524 JLINK_ReadReg(FPS0)  returns 0x00000000 (0001ms, 0543ms total)
T2F2C 026:525 JLINK_ReadReg(FPS1)  returns 0x00000000 (0000ms, 0543ms total)
T2F2C 026:525 JLINK_ReadReg(FPS2)  returns 0x00000000 (0000ms, 0543ms total)
T2F2C 026:525 JLINK_ReadReg(FPS3)  returns 0x00000000 (0000ms, 0543ms total)
T2F2C 026:525 JLINK_ReadReg(FPS4)  returns 0x00000000 (0000ms, 0543ms total)
T2F2C 026:525 JLINK_ReadReg(FPS5)  returns 0x00000000 (0000ms, 0543ms total)
T2F2C 026:525 JLINK_ReadReg(FPS6)  returns 0x00000000 (0001ms, 0544ms total)
T2F2C 026:526 JLINK_ReadReg(FPS7)  returns 0x00000000 (0000ms, 0544ms total)
T2F2C 026:526 JLINK_ReadReg(FPS8)  returns 0x00000000 (0000ms, 0544ms total)
T2F2C 026:526 JLINK_ReadReg(FPS9)  returns 0x00000000 (0000ms, 0544ms total)
T2F2C 026:526 JLINK_ReadReg(FPS10)  returns 0x00000000 (0000ms, 0544ms total)
T2F2C 026:526 JLINK_ReadReg(FPS11)  returns 0x00000000 (0000ms, 0544ms total)
T2F2C 026:526 JLINK_ReadReg(FPS12)  returns 0x00000000 (0000ms, 0544ms total)
T2F2C 026:527 JLINK_ReadReg(FPS13)  returns 0x00000000 (0000ms, 0545ms total)
T2F2C 026:527 JLINK_ReadReg(FPS14)  returns 0x00000000 (0000ms, 0545ms total)
T2F2C 026:527 JLINK_ReadReg(FPS15)  returns 0x00000000 (0000ms, 0545ms total)
T2F2C 026:527 JLINK_ReadReg(FPS16)  returns 0x00000000 (0000ms, 0545ms total)
T2F2C 026:527 JLINK_ReadReg(FPS17)  returns 0x00000000 (0000ms, 0545ms total)
T2F2C 026:527 JLINK_ReadReg(FPS18)  returns 0x00000000 (0000ms, 0545ms total)
T2F2C 026:527 JLINK_ReadReg(FPS19)  returns 0x00000000 (0001ms, 0546ms total)
T2F2C 026:528 JLINK_ReadReg(FPS20)  returns 0x00000000 (0000ms, 0546ms total)
T2F2C 026:528 JLINK_ReadReg(FPS21)  returns 0x00000000 (0000ms, 0546ms total)
T2F2C 026:528 JLINK_ReadReg(FPS22)  returns 0x00000000 (0000ms, 0546ms total)
T2F2C 026:528 JLINK_ReadReg(FPS23)  returns 0x00000000 (0000ms, 0546ms total)
T2F2C 026:528 JLINK_ReadReg(FPS24)  returns 0x00000000 (0000ms, 0546ms total)
T2F2C 026:528 JLINK_ReadReg(FPS25)  returns 0x00000000 (0000ms, 0546ms total)
T2F2C 026:529 JLINK_ReadReg(FPS26)  returns 0x00000000 (0000ms, 0547ms total)
T2F2C 026:529 JLINK_ReadReg(FPS27)  returns 0x00000000 (0000ms, 0547ms total)
T2F2C 026:529 JLINK_ReadReg(FPS28)  returns 0x00000000 (0000ms, 0547ms total)
T2F2C 026:529 JLINK_ReadReg(FPS29)  returns 0x00000000 (0000ms, 0547ms total)
T2F2C 026:529 JLINK_ReadReg(FPS30)  returns 0x00000000 (0000ms, 0547ms total)
T2F2C 026:529 JLINK_ReadReg(FPS31)  returns 0x00000000 (0000ms, 0547ms total)
T4EAC 026:530 JLINK_ReadMemU32(0xE0001004, 0x0001 Items, ...) -- CPU_ReadMem(4 bytes @ 0xE0001004) - Data: 1F 5E 03 00  returns 0x01 (0000ms, 0547ms total)
T4EAC 026:530 JLINK_ReadMem (0x20000004, 0x0004 Bytes, ...) -- CPU_ReadMem(64 bytes @ 0x20000000) -- Updating C cache (64 bytes @ 0x20000000) -- Read from C cache (4 bytes @ 0x20000004) - Data: 01 00 00 00  returns 0x00 (0002ms, 0549ms total)
T4EAC 026:537 JLINK_ReadMem (0x08001AB4, 0x003C Bytes, ...) -- CPU_ReadMem(128 bytes @ 0x08001A80) -- Updating C cache (128 bytes @ 0x08001A80) -- Read from C cache (60 bytes @ 0x08001AB4) - Data: 03 49 88 42 01 D1 00 F0 47 BC 70 47 00 00 01 40 ...  returns 0x00 (0002ms, 0551ms total)
T2F2C 027:400 JLINK_Step() -- Read from C cache (2 bytes @ 0x08001ABA) -- Read from C cache (2 bytes @ 0x08001ABC) -- Simulated  returns 0x00 (0001ms, 0552ms total)
T2F2C 027:401 JLINK_ReadReg(R15 (PC))  returns 0x0800234C (0000ms, 0552ms total)
T2F2C 027:401 JLINK_ReadReg(XPSR)  returns 0x6100002D (0000ms, 0552ms total)
T2F2C 027:401 JLINK_SetBPEx(Addr = 0x08001ABA, Type = 0xFFFFFFF2)  returns 0x00000006 (0001ms, 0553ms total)
T2F2C 027:402 JLINK_Go() -- CPU_WriteMem(4 bytes @ 0xE0002000) -- CPU_ReadMem(4 bytes @ 0xE0001000) -- CPU_WriteMem(4 bytes @ 0xE0001004) (0003ms, 0556ms total)
T2F2C 027:507 JLINK_IsHalted()  returns TRUE (0005ms, 0561ms total)
T2F2C 027:512 JLINK_Halt()  returns 0x00 (0000ms, 0556ms total)
T2F2C 027:512 JLINK_IsHalted()  returns TRUE (0000ms, 0556ms total)
T2F2C 027:512 JLINK_IsHalted()  returns TRUE (0000ms, 0556ms total)
T2F2C 027:512 JLINK_IsHalted()  returns TRUE (0000ms, 0556ms total)
T2F2C 027:512 JLINK_ReadReg(R15 (PC))  returns 0x08001ABA (0001ms, 0557ms total)
T2F2C 027:513 JLINK_ReadReg(XPSR)  returns 0x6100002D (0000ms, 0557ms total)
T2F2C 027:513 JLINK_ClrBPEx(BPHandle = 0x00000006)  returns 0x00 (0000ms, 0557ms total)
T2F2C 027:513 JLINK_ReadMemU32(0xE000ED30, 0x0001 Items, ...) -- CPU_ReadMem(4 bytes @ 0xE000ED30) - Data: 02 00 00 00  returns 0x01 (0001ms, 0558ms total)
T2F2C 027:514 JLINK_ReadMemU32(0xE0001028, 0x0001 Items, ...) -- CPU_ReadMem(4 bytes @ 0xE0001028) - Data: 00 00 00 00  returns 0x01 (0000ms, 0558ms total)
T2F2C 027:514 JLINK_ReadMemU32(0xE0001038, 0x0001 Items, ...) -- CPU_ReadMem(4 bytes @ 0xE0001038) - Data: 00 02 00 00  returns 0x01 (0001ms, 0559ms total)
T2F2C 027:515 JLINK_ReadMemU32(0xE0001048, 0x0001 Items, ...) -- CPU_ReadMem(4 bytes @ 0xE0001048) - Data: 00 00 00 00  returns 0x01 (0001ms, 0560ms total)
T2F2C 027:516 JLINK_ReadMemU32(0xE0001058, 0x0001 Items, ...) -- CPU_ReadMem(4 bytes @ 0xE0001058) - Data: 00 00 00 00  returns 0x01 (0000ms, 0560ms total)
T2F2C 027:516 JLINK_ReadReg(R0)  returns 0x40000400 (0001ms, 0561ms total)
T2F2C 027:517 JLINK_ReadReg(R1)  returns 0x40000400 (0000ms, 0561ms total)
T2F2C 027:517 JLINK_ReadReg(R2)  returns 0x00000000 (0000ms, 0561ms total)
T2F2C 027:517 JLINK_ReadReg(R3)  returns 0x00000000 (0000ms, 0561ms total)
T2F2C 027:517 JLINK_ReadReg(R4)  returns 0x200003F8 (0000ms, 0561ms total)
T2F2C 027:517 JLINK_ReadReg(R5)  returns 0x00000000 (0000ms, 0561ms total)
T2F2C 027:517 JLINK_ReadReg(R6)  returns 0x20000780 (0000ms, 0561ms total)
T2F2C 027:517 JLINK_ReadReg(R7)  returns 0x200006B8 (0001ms, 0562ms total)
T2F2C 027:518 JLINK_ReadReg(R8)  returns 0x10000000 (0000ms, 0562ms total)
T2F2C 027:518 JLINK_ReadReg(R9)  returns 0xE000ED04 (0000ms, 0562ms total)
T2F2C 027:518 JLINK_ReadReg(R10)  returns 0x00000000 (0000ms, 0562ms total)
T2F2C 027:518 JLINK_ReadReg(R11)  returns 0x00000000 (0000ms, 0562ms total)
T2F2C 027:518 JLINK_ReadReg(R12)  returns 0x00000000 (0000ms, 0562ms total)
T2F2C 027:518 JLINK_ReadReg(R13 (SP))  returns 0x200047C0 (0000ms, 0562ms total)
T2F2C 027:518 JLINK_ReadReg(R14)  returns 0x08001A45 (0000ms, 0562ms total)
T2F2C 027:519 JLINK_ReadReg(R15 (PC))  returns 0x08001ABA (0000ms, 0563ms total)
T2F2C 027:519 JLINK_ReadReg(XPSR)  returns 0x6100002D (0000ms, 0563ms total)
T2F2C 027:519 JLINK_ReadReg(MSP)  returns 0x200047C0 (0000ms, 0563ms total)
